Freq.	V(out)
1.00000000000000e+02	(-1.62646324341684e+02dB,8.95626647804169e+01°)
1.00230523807790e+02	(-1.62586324323322e+02dB,8.95616598375534e+01°)
1.00461579027840e+02	(-1.62526324304875e+02dB,8.95606525706402e+01°)
1.00693166885180e+02	(-1.62466324286343e+02dB,8.95596429743367e+01°)
1.00925288607668e+02	(-1.62406324267726e+02dB,8.95586310432902e+01°)
1.01157945425990e+02	(-1.62346324249022e+02dB,8.95576167721353e+01°)
1.01391138573668e+02	(-1.62286324230232e+02dB,8.95566001554943e+01°)
1.01624869287070e+02	(-1.62226324211356e+02dB,8.95555811879773e+01°)
1.01859138805412e+02	(-1.62166324192392e+02dB,8.95545598641816e+01°)
1.02093948370768e+02	(-1.62106324173340e+02dB,8.95535361786921e+01°)
1.02329299228075e+02	(-1.62046324154201e+02dB,8.95525101260814e+01°)
1.02565192625141e+02	(-1.61986324134973e+02dB,8.95514817009092e+01°)
1.02801629812647e+02	(-1.61926324115657e+02dB,8.95504508977228e+01°)
1.03038612044162e+02	(-1.61866324096251e+02dB,8.95494177110570e+01°)
1.03276140576140e+02	(-1.61806324076756e+02dB,8.95483821354337e+01°)
1.03514216667934e+02	(-1.61746324057171e+02dB,8.95473441653624e+01°)
1.03752841581801e+02	(-1.61686324037495e+02dB,8.95463037953397e+01°)
1.03992016582906e+02	(-1.61626324017728e+02dB,8.95452610198496e+01°)
1.04231742939330e+02	(-1.61566323997870e+02dB,8.95442158333633e+01°)
1.04472021922080e+02	(-1.61506323977921e+02dB,8.95431682303392e+01°)
1.04712854805090e+02	(-1.61446323957879e+02dB,8.95421182052230e+01°)
1.04954242865232e+02	(-1.61386323937745e+02dB,8.95410657524473e+01°)
1.05196187382322e+02	(-1.61326323917518e+02dB,8.95400108664320e+01°)
1.05438689639126e+02	(-1.61266323897197e+02dB,8.95389535415843e+01°)
1.05681750921366e+02	(-1.61206323876783e+02dB,8.95378937722980e+01°)
1.05925372517729e+02	(-1.61146323856275e+02dB,8.95368315529544e+01°)
1.06169555719872e+02	(-1.61086323835671e+02dB,8.95357668779214e+01°)
1.06414301822431e+02	(-1.61026323814973e+02dB,8.95346997415543e+01°)
1.06659612123026e+02	(-1.60966323794179e+02dB,8.95336301381950e+01°)
1.06905487922266e+02	(-1.60906323773289e+02dB,8.95325580621726e+01°)
1.07151930523760e+02	(-1.60846323752303e+02dB,8.95314835078027e+01°)
1.07398941234124e+02	(-1.60786323731219e+02dB,8.95304064693882e+01°)
1.07646521362983e+02	(-1.60726323710039e+02dB,8.95293269412186e+01°)
1.07894672222983e+02	(-1.60666323688760e+02dB,8.95282449175702e+01°)
1.08143395129794e+02	(-1.60606323667384e+02dB,8.95271603927061e+01°)
1.08392691402120e+02	(-1.60546323645908e+02dB,8.95260733608762e+01°)
1.08642562361706e+02	(-1.60486323624334e+02dB,8.95249838163169e+01°)
1.08893009333343e+02	(-1.60426323602660e+02dB,8.95238917532515e+01°)
1.09144033644875e+02	(-1.60366323580885e+02dB,8.95227971658900e+01°)
1.09395636627209e+02	(-1.60306323559011e+02dB,8.95217000484287e+01°)
1.09647819614318e+02	(-1.60246323537035e+02dB,8.95206003950507e+01°)
1.09900583943252e+02	(-1.60186323514958e+02dB,8.95194981999257e+01°)
1.10153930954141e+02	(-1.60126323492779e+02dB,8.95183934572098e+01°)
1.10407861990207e+02	(-1.60066323470497e+02dB,8.95172861610457e+01°)
1.10662378397766e+02	(-1.60006323448113e+02dB,8.95161763055624e+01°)
1.10917481526240e+02	(-1.59946323425625e+02dB,8.95150638848754e+01°)
1.11173172728159e+02	(-1.59886323403034e+02dB,8.95139488930868e+01°)
1.11429453359173e+02	(-1.59826323380338e+02dB,8.95128313242847e+01°)
1.11686324778056e+02	(-1.59766323357537e+02dB,8.95117111725439e+01°)
1.11943788346715e+02	(-1.59706323334632e+02dB,8.95105884319253e+01°)
1.12201845430196e+02	(-1.59646323311620e+02dB,8.95094630964760e+01°)
1.12460497396692e+02	(-1.59586323288502e+02dB,8.95083351602295e+01°)
1.12719745617551e+02	(-1.59526323265277e+02dB,8.95072046172055e+01°)
1.12979591467279e+02	(-1.59466323241946e+02dB,8.95060714614098e+01°)
1.13240036323555e+02	(-1.59406323218506e+02dB,8.95049356868345e+01°)
1.13501081567231e+02	(-1.59346323194958e+02dB,8.95037972874575e+01°)
1.13762728582343e+02	(-1.59286323171302e+02dB,8.95026562572431e+01°)
1.14024978756116e+02	(-1.59226323147536e+02dB,8.95015125901415e+01°)
1.14287833478977e+02	(-1.59166323123661e+02dB,8.95003662800890e+01°)
1.14551294144553e+02	(-1.59106323099675e+02dB,8.94992173210078e+01°)
1.14815362149688e+02	(-1.59046323075579e+02dB,8.94980657068061e+01°)
1.15080038894443e+02	(-1.58986323051371e+02dB,8.94969114313780e+01°)
1.15345325782109e+02	(-1.58926323027052e+02dB,8.94957544886036e+01°)
1.15611224219209e+02	(-1.58866323002621e+02dB,8.94945948723486e+01°)
1.15877735615512e+02	(-1.58806322978076e+02dB,8.94934325764647e+01°)
1.16144861384034e+02	(-1.58746322953418e+02dB,8.94922675947895e+01°)
1.16412602941049e+02	(-1.58686322928647e+02dB,8.94910999211461e+01°)
1.16680961706096e+02	(-1.58626322903761e+02dB,8.94899295493436e+01°)
1.16949939101987e+02	(-1.58566322878760e+02dB,8.94887564731766e+01°)
1.17219536554813e+02	(-1.58506322853644e+02dB,8.94875806864254e+01°)
1.17489755493952e+02	(-1.58446322828412e+02dB,8.94864021828559e+01°)
1.17760597352080e+02	(-1.58386322803063e+02dB,8.94852209562197e+01°)
1.18032063565172e+02	(-1.58326322777598e+02dB,8.94840370002539e+01°)
1.18304155572516e+02	(-1.58266322752014e+02dB,8.94828503086811e+01°)
1.18576874816716e+02	(-1.58206322726313e+02dB,8.94816608752094e+01°)
1.18850222743701e+02	(-1.58146322700493e+02dB,8.94804686935325e+01°)
1.19124200802737e+02	(-1.58086322674554e+02dB,8.94792737573293e+01°)
1.19398810446427e+02	(-1.58026322648495e+02dB,8.94780760602642e+01°)
1.19674053130724e+02	(-1.57966322622316e+02dB,8.94768755959870e+01°)
1.19949930314937e+02	(-1.57906322596016e+02dB,8.94756723581329e+01°)
1.20226443461741e+02	(-1.57846322569594e+02dB,8.94744663403221e+01°)
1.20503594037179e+02	(-1.57786322543051e+02dB,8.94732575361604e+01°)
1.20781383510677e+02	(-1.57726322516385e+02dB,8.94720459392386e+01°)
1.21059813355048e+02	(-1.57666322489596e+02dB,8.94708315431328e+01°)
1.21338885046497e+02	(-1.57606322462683e+02dB,8.94696143414042e+01°)
1.21618600064636e+02	(-1.57546322435646e+02dB,8.94683943275992e+01°)
1.21898959892486e+02	(-1.57486322408484e+02dB,8.94671714952492e+01°)
1.22179966016487e+02	(-1.57426322381197e+02dB,8.94659458378707e+01°)
1.22461619926504e+02	(-1.57366322353783e+02dB,8.94647173489652e+01°)
1.22743923115840e+02	(-1.57306322326244e+02dB,8.94634860220191e+01°)
1.23026877081238e+02	(-1.57246322298577e+02dB,8.94622518505041e+01°)
1.23310483322890e+02	(-1.57186322270782e+02dB,8.94610148278764e+01°)
1.23594743344450e+02	(-1.57126322242859e+02dB,8.94597749475773e+01°)
1.23879658653036e+02	(-1.57066322214807e+02dB,8.94585322030329e+01°)
1.24165230759240e+02	(-1.57006322186626e+02dB,8.94572865876541e+01°)
1.24451461177138e+02	(-1.56946322158315e+02dB,8.94560380948365e+01°)
1.24738351424294e+02	(-1.56886322129873e+02dB,8.94547867179607e+01°)
1.25025903021771e+02	(-1.56826322101299e+02dB,8.94535324503918e+01°)
1.25314117494141e+02	(-1.56766322072594e+02dB,8.94522752854795e+01°)
1.25602996369487e+02	(-1.56706322043756e+02dB,8.94510152165584e+01°)
1.25892541179416e+02	(-1.56646322014785e+02dB,8.94497522369474e+01°)
1.26182753459066e+02	(-1.56586321985680e+02dB,8.94484863399503e+01°)
1.26473634747114e+02	(-1.56526321956441e+02dB,8.94472175188551e+01°)
1.26765186585784e+02	(-1.56466321927067e+02dB,8.94459457669345e+01°)
1.27057410520853e+02	(-1.56406321897557e+02dB,8.94446710774456e+01°)
1.27350308101665e+02	(-1.56346321867912e+02dB,8.94433934436300e+01°)
1.27643880881134e+02	(-1.56286321838129e+02dB,8.94421128587135e+01°)
1.27938130415752e+02	(-1.56226321808209e+02dB,8.94408293159064e+01°)
1.28233058265601e+02	(-1.56166321778150e+02dB,8.94395428084033e+01°)
1.28528665994361e+02	(-1.56106321747953e+02dB,8.94382533293831e+01°)
1.28824955169313e+02	(-1.56046321717617e+02dB,8.94369608720089e+01°)
1.29121927361353e+02	(-1.55986321687140e+02dB,8.94356654294280e+01°)
1.29419584144998e+02	(-1.55926321656523e+02dB,8.94343669947719e+01°)
1.29717927098395e+02	(-1.55866321625764e+02dB,8.94330655611563e+01°)
1.30016957803328e+02	(-1.55806321594864e+02dB,8.94317611216807e+01°)
1.30316677845229e+02	(-1.55746321563821e+02dB,8.94304536694291e+01°)
1.30617088813183e+02	(-1.55686321532634e+02dB,8.94291431974692e+01°)
1.30918192299940e+02	(-1.55626321501304e+02dB,8.94278296988529e+01°)
1.31219989901920e+02	(-1.55566321469829e+02dB,8.94265131666158e+01°)
1.31522483219223e+02	(-1.55506321438208e+02dB,8.94251935937777e+01°)
1.31825673855640e+02	(-1.55446321406442e+02dB,8.94238709733421e+01°)
1.32129563418657e+02	(-1.55386321374529e+02dB,8.94225452982963e+01°)
1.32434153519466e+02	(-1.55326321342468e+02dB,8.94212165616116e+01°)
1.32739445772973e+02	(-1.55266321310260e+02dB,8.94198847562430e+01°)
1.33045441797808e+02	(-1.55206321277903e+02dB,8.94185498751289e+01°)
1.33352143216332e+02	(-1.55146321245397e+02dB,8.94172119111920e+01°)
1.33659551654643e+02	(-1.55086321212740e+02dB,8.94158708573381e+01°)
1.33967668742593e+02	(-1.55026321179933e+02dB,8.94145267064570e+01°)
1.34276496113786e+02	(-1.54966321146974e+02dB,8.94131794514218e+01°)
1.34586035405594e+02	(-1.54906321113864e+02dB,8.94118290850893e+01°)
1.34896288259165e+02	(-1.54846321080600e+02dB,8.94104756002998e+01°)
1.35207256319427e+02	(-1.54786321047183e+02dB,8.94091189898770e+01°)
1.35518941235103e+02	(-1.54726321013611e+02dB,8.94077592466280e+01°)
1.35831344658715e+02	(-1.54666320979885e+02dB,8.94063963633434e+01°)
1.36144468246594e+02	(-1.54606320946003e+02dB,8.94050303327971e+01°)
1.36458313658892e+02	(-1.54546320911964e+02dB,8.94036611477462e+01°)
1.36772882559584e+02	(-1.54486320877769e+02dB,8.94022888009313e+01°)
1.37088176616484e+02	(-1.54426320843415e+02dB,8.94009132850761e+01°)
1.37404197501251e+02	(-1.54366320808903e+02dB,8.93995345928875e+01°)
1.37720946889394e+02	(-1.54306320774232e+02dB,8.93981527170556e+01°)
1.38038426460288e+02	(-1.54246320739400e+02dB,8.93967676502534e+01°)
1.38356637897177e+02	(-1.54186320704408e+02dB,8.93953793851374e+01°)
1.38675582887188e+02	(-1.54126320669254e+02dB,8.93939879143468e+01°)
1.38995263121334e+02	(-1.54066320633938e+02dB,8.93925932305038e+01°)
1.39315680294529e+02	(-1.54006320598459e+02dB,8.93911953262139e+01°)
1.39636836105593e+02	(-1.53946320562817e+02dB,8.93897941940652e+01°)
1.39958732257261e+02	(-1.53886320527009e+02dB,8.93883898266287e+01°)
1.40281370456195e+02	(-1.53826320491037e+02dB,8.93869822164584e+01°)
1.40604752412990e+02	(-1.53766320454898e+02dB,8.93855713560911e+01°)
1.40928879842186e+02	(-1.53706320418592e+02dB,8.93841572380461e+01°)
1.41253754462274e+02	(-1.53646320382119e+02dB,8.93827398548258e+01°)
1.41579377995707e+02	(-1.53586320345478e+02dB,8.93813191989151e+01°)
1.41905752168908e+02	(-1.53526320308667e+02dB,8.93798952627814e+01°)
1.42232878712281e+02	(-1.53466320271686e+02dB,8.93784680388750e+01°)
1.42560759360218e+02	(-1.53406320234535e+02dB,8.93770375196286e+01°)
1.42889395851109e+02	(-1.53346320197212e+02dB,8.93756036974574e+01°)
1.43218789927353e+02	(-1.53286320159717e+02dB,8.93741665647593e+01°)
1.43548943335364e+02	(-1.53226320122049e+02dB,8.93727261139144e+01°)
1.43879857825583e+02	(-1.53166320084207e+02dB,8.93712823372852e+01°)
1.44211535152486e+02	(-1.53106320046191e+02dB,8.93698352272167e+01°)
1.44543977074592e+02	(-1.53046320007998e+02dB,8.93683847760363e+01°)
1.44877185354475e+02	(-1.52986319969630e+02dB,8.93669309760535e+01°)
1.45211161758773e+02	(-1.52926319931084e+02dB,8.93654738195600e+01°)
1.45545908058195e+02	(-1.52866319892361e+02dB,8.93640132988300e+01°)
1.45881426027534e+02	(-1.52806319853459e+02dB,8.93625494061196e+01°)
1.46217717445671e+02	(-1.52746319814377e+02dB,8.93610821336670e+01°)
1.46554784095590e+02	(-1.52686319775114e+02dB,8.93596114736927e+01°)
1.46892627764385e+02	(-1.52626319735671e+02dB,8.93581374183991e+01°)
1.47231250243271e+02	(-1.52566319696045e+02dB,8.93566599599705e+01°)
1.47570653327588e+02	(-1.52506319656237e+02dB,8.93551790905733e+01°)
1.47910838816819e+02	(-1.52446319616245e+02dB,8.93536948023559e+01°)
1.48251808514594e+02	(-1.52386319576068e+02dB,8.93522070874483e+01°)
1.48593564228699e+02	(-1.52326319535706e+02dB,8.93507159379625e+01°)
1.48936107771090e+02	(-1.52266319495157e+02dB,8.93492213459924e+01°)
1.49279440957898e+02	(-1.52206319454421e+02dB,8.93477233036133e+01°)
1.49623565609442e+02	(-1.52146319413497e+02dB,8.93462218028826e+01°)
1.49968483550236e+02	(-1.52086319372385e+02dB,8.93447168358390e+01°)
1.50314196609001e+02	(-1.52026319331082e+02dB,8.93432083945032e+01°)
1.50660706618673e+02	(-1.51966319289589e+02dB,8.93416964708771e+01°)
1.51008015416413e+02	(-1.51906319247904e+02dB,8.93401810569443e+01°)
1.51356124843619e+02	(-1.51846319206027e+02dB,8.93386621446701e+01°)
1.51705036745932e+02	(-1.51786319163957e+02dB,8.93371397260009e+01°)
1.52054752973248e+02	(-1.51726319121692e+02dB,8.93356137928646e+01°)
1.52405275379728e+02	(-1.51666319079232e+02dB,8.93340843371707e+01°)
1.52756605823806e+02	(-1.51606319036577e+02dB,8.93325513508098e+01°)
1.53108746168202e+02	(-1.51546318993724e+02dB,8.93310148256537e+01°)
1.53461698279928e+02	(-1.51486318950674e+02dB,8.93294747535556e+01°)
1.53815464030302e+02	(-1.51426318907424e+02dB,8.93279311263499e+01°)
1.54170045294954e+02	(-1.51366318863976e+02dB,8.93263839358521e+01°)
1.54525443953840e+02	(-1.51306318820326e+02dB,8.93248331738588e+01°)
1.54881661891247e+02	(-1.51246318776475e+02dB,8.93232788321477e+01°)
1.55238700995807e+02	(-1.51186318732422e+02dB,8.93217209024773e+01°)
1.55596563160506e+02	(-1.51126318688166e+02dB,8.93201593765875e+01°)
1.55955250282694e+02	(-1.51066318643705e+02dB,8.93185942461988e+01°)
1.56314764264094e+02	(-1.51006318599039e+02dB,8.93170255030126e+01°)
1.56675107010813e+02	(-1.50946318554166e+02dB,8.93154531387113e+01°)
1.57036280433354e+02	(-1.50886318509087e+02dB,8.93138771449580e+01°)
1.57398286446620e+02	(-1.50826318463799e+02dB,8.93122975133966e+01°)
1.57761126969933e+02	(-1.50766318418303e+02dB,8.93107142356516e+01°)
1.58124803927037e+02	(-1.50706318372596e+02dB,8.93091273033284e+01°)
1.58489319246110e+02	(-1.50646318326679e+02dB,8.93075367080127e+01°)
1.58854674859776e+02	(-1.50586318280549e+02dB,8.93059424412711e+01°)
1.59220872705115e+02	(-1.50526318234207e+02dB,8.93043444946504e+01°)
1.59587914723672e+02	(-1.50466318187650e+02dB,8.93027428596783e+01°)
1.59955802861465e+02	(-1.50406318140879e+02dB,8.93011375278625e+01°)
1.60324539069002e+02	(-1.50346318093892e+02dB,8.92995284906913e+01°)
1.60694125301286e+02	(-1.50286318046688e+02dB,8.92979157396335e+01°)
1.61064563517825e+02	(-1.50226317999266e+02dB,8.92962992661380e+01°)
1.61435855682647e+02	(-1.50166317951625e+02dB,8.92946790616341e+01°)
1.61808003764305e+02	(-1.50106317903764e+02dB,8.92930551175311e+01°)
1.62181009735891e+02	(-1.50046317855682e+02dB,8.92914274252186e+01°)
1.62554875575047e+02	(-1.49986317807379e+02dB,8.92897959760665e+01°)
1.62929603263970e+02	(-1.49926317758852e+02dB,8.92881607614245e+01°)
1.63305194789432e+02	(-1.49866317710102e+02dB,8.92865217726225e+01°)
1.63681652142779e+02	(-1.49806317661126e+02dB,8.92848790009702e+01°)
1.64058977319952e+02	(-1.49746317611924e+02dB,8.92832324377576e+01°)
1.64437172321491e+02	(-1.49686317562496e+02dB,8.92815820742542e+01°)
1.64816239152549e+02	(-1.49626317512839e+02dB,8.92799279017095e+01°)
1.65196179822900e+02	(-1.49566317462952e+02dB,8.92782699113530e+01°)
1.65576996346951e+02	(-1.49506317412836e+02dB,8.92766080943936e+01°)
1.65958690743754e+02	(-1.49446317362488e+02dB,8.92749424420201e+01°)
1.66341265037015e+02	(-1.49386317311908e+02dB,8.92732729454011e+01°)
1.66724721255104e+02	(-1.49326317261094e+02dB,8.92715995956845e+01°)
1.67109061431069e+02	(-1.49266317210046e+02dB,8.92699223839979e+01°)
1.67494287602642e+02	(-1.49206317158762e+02dB,8.92682413014486e+01°)
1.67880401812254e+02	(-1.49146317107242e+02dB,8.92665563391232e+01°)
1.68267406107045e+02	(-1.49086317055483e+02dB,8.92648674880876e+01°)
1.68655302538872e+02	(-1.49026317003486e+02dB,8.92631747393874e+01°)
1.69044093164324e+02	(-1.48966316951249e+02dB,8.92614780840473e+01°)
1.69433780044731e+02	(-1.48906316898770e+02dB,8.92597775130714e+01°)
1.69824365246172e+02	(-1.48846316846049e+02dB,8.92580730174428e+01°)
1.70215850839493e+02	(-1.48786316793085e+02dB,8.92563645881242e+01°)
1.70608238900310e+02	(-1.48726316739877e+02dB,8.92546522160571e+01°)
1.71001531509027e+02	(-1.48666316686423e+02dB,8.92529358921622e+01°)
1.71395730750840e+02	(-1.48606316632722e+02dB,8.92512156073393e+01°)
1.71790838715757e+02	(-1.48546316578773e+02dB,8.92494913524671e+01°)
1.72186857498599e+02	(-1.48486316524575e+02dB,8.92477631184033e+01°)
1.72583789199018e+02	(-1.48426316470127e+02dB,8.92460308959845e+01°)
1.72981635921508e+02	(-1.48366316415428e+02dB,8.92442946760261e+01°)
1.73380399775412e+02	(-1.48306316360476e+02dB,8.92425544493225e+01°)
1.73780082874935e+02	(-1.48246316305271e+02dB,8.92408102066465e+01°)
1.74180687339159e+02	(-1.48186316249811e+02dB,8.92390619387500e+01°)
1.74582215292048e+02	(-1.48126316194094e+02dB,8.92373096363632e+01°)
1.74984668862463e+02	(-1.48066316138121e+02dB,8.92355532901951e+01°)
1.75388050184174e+02	(-1.48006316081889e+02dB,8.92337928909332e+01°)
1.75792361395867e+02	(-1.47946316025398e+02dB,8.92320284292437e+01°)
1.76197604641161e+02	(-1.47886315968646e+02dB,8.92302598957709e+01°)
1.76603782068614e+02	(-1.47826315911632e+02dB,8.92284872811377e+01°)
1.77010895831740e+02	(-1.47766315854355e+02dB,8.92267105759455e+01°)
1.77418948089014e+02	(-1.47706315796813e+02dB,8.92249297707737e+01°)
1.77827941003890e+02	(-1.47646315739006e+02dB,8.92231448561803e+01°)
1.78237876744807e+02	(-1.47586315680932e+02dB,8.92213558227012e+01°)
1.78648757485203e+02	(-1.47526315622590e+02dB,8.92195626608505e+01°)
1.79060585403527e+02	(-1.47466315563978e+02dB,8.92177653611207e+01°)
1.79473362683250e+02	(-1.47406315505096e+02dB,8.92159639139821e+01°)
1.79887091512876e+02	(-1.47346315445942e+02dB,8.92141583098830e+01°)
1.80301774085954e+02	(-1.47286315386516e+02dB,8.92123485392497e+01°)
1.80717412601090e+02	(-1.47226315326814e+02dB,8.92105345924865e+01°)
1.81134009261958e+02	(-1.47166315266838e+02dB,8.92087164599755e+01°)
1.81551566277311e+02	(-1.47106315206584e+02dB,8.92068941320765e+01°)
1.81970085860996e+02	(-1.47046315146053e+02dB,8.92050675991271e+01°)
1.82389570231961e+02	(-1.46986315085242e+02dB,8.92032368514428e+01°)
1.82810021614272e+02	(-1.46926315024150e+02dB,8.92014018793164e+01°)
1.83231442237119e+02	(-1.46866314962776e+02dB,8.91995626730186e+01°)
1.83653834334832e+02	(-1.46806314901119e+02dB,8.91977192227975e+01°)
1.84077200146893e+02	(-1.46746314839177e+02dB,8.91958715188787e+01°)
1.84501541917945e+02	(-1.46686314776950e+02dB,8.91940195514654e+01°)
1.84926861897805e+02	(-1.46626314714435e+02dB,8.91921633107379e+01°)
1.85353162341478e+02	(-1.46566314651632e+02dB,8.91903027868540e+01°)
1.85780445509167e+02	(-1.46506314588538e+02dB,8.91884379699489e+01°)
1.86208713666284e+02	(-1.46446314525154e+02dB,8.91865688501348e+01°)
1.86637969083464e+02	(-1.46386314461477e+02dB,8.91846954175014e+01°)
1.87068214036577e+02	(-1.46326314397506e+02dB,8.91828176621151e+01°)
1.87499450806739e+02	(-1.46266314333240e+02dB,8.91809355740197e+01°)
1.87931681680324e+02	(-1.46206314268677e+02dB,8.91790491432360e+01°)
1.88364908948977e+02	(-1.46146314203816e+02dB,8.91771583597617e+01°)
1.88799134909627e+02	(-1.46086314138655e+02dB,8.91752632135713e+01°)
1.89234361864495e+02	(-1.46026314073194e+02dB,8.91733636946164e+01°)
1.89670592121112e+02	(-1.45966314007431e+02dB,8.91714597928253e+01°)
1.90107827992327e+02	(-1.45906313941364e+02dB,8.91695514981030e+01°)
1.90546071796322e+02	(-1.45846313874993e+02dB,8.91676388003313e+01°)
1.90985325856621e+02	(-1.45786313808314e+02dB,8.91657216893685e+01°)
1.91425592502106e+02	(-1.45726313741329e+02dB,8.91638001550498e+01°)
1.91866874067026e+02	(-1.45666313674033e+02dB,8.91618741871867e+01°)
1.92309172891013e+02	(-1.45606313606428e+02dB,8.91599437755672e+01°)
1.92752491319091e+02	(-1.45546313538510e+02dB,8.91580089099558e+01°)
1.93196831701689e+02	(-1.45486313470279e+02dB,8.91560695800933e+01°)
1.93642196394658e+02	(-1.45426313401733e+02dB,8.91541257756970e+01°)
1.94088587759275e+02	(-1.45366313332870e+02dB,8.91521774864603e+01°)
