Freq.	V(n003)
1.00000000000000e+02	(-3.11395553549961e-03dB,1.79787805296276e+02°)
1.00230523807790e+02	(-3.11394033218173e-03dB,1.79787316136201e+02°)
1.00461579027840e+02	(-3.11392505868389e-03dB,1.79786825848491e+02°)
1.00693166885180e+02	(-3.11390971468775e-03dB,1.79786334430545e+02°)
1.00925288607668e+02	(-3.11389429986727e-03dB,1.79785841879759e+02°)
1.01157945425990e+02	(-3.11387881388480e-03dB,1.79785348193520e+02°)
1.01391138573668e+02	(-3.11386325643646e-03dB,1.79784853369211e+02°)
1.01624869287070e+02	(-3.11384762717692e-03dB,1.79784357404210e+02°)
1.01859138805412e+02	(-3.11383192576273e-03dB,1.79783860295885e+02°)
1.02093948370768e+02	(-3.11381615189583e-03dB,1.79783362041602e+02°)
1.02329299228075e+02	(-3.11380030519999e-03dB,1.79782862638718e+02°)
1.02565192625141e+02	(-3.11378438536458e-03dB,1.79782362084586e+02°)
1.02801629812647e+02	(-3.11376839204522e-03dB,1.79781860376552e+02°)
1.03038612044162e+02	(-3.11375232491392e-03dB,1.79781357511956e+02°)
1.03276140576140e+02	(-3.11373618361085e-03dB,1.79780853488132e+02°)
1.03514216667934e+02	(-3.11371996781478e-03dB,1.79780348302406e+02°)
1.03752841581801e+02	(-3.11370367716588e-03dB,1.79779841952102e+02°)
1.03992016582906e+02	(-3.11368731130434e-03dB,1.79779334434534e+02°)
1.04231742939330e+02	(-3.11367086992435e-03dB,1.79778825747011e+02°)
1.04472021922080e+02	(-3.11365435265549e-03dB,1.79778315886836e+02°)
1.04712854805090e+02	(-3.11363775912923e-03dB,1.79777804851306e+02°)
1.04954242865232e+02	(-3.11362108901085e-03dB,1.79777292637711e+02°)
1.05196187382322e+02	(-3.11360434196078e-03dB,1.79776779243337e+02°)
1.05438689639126e+02	(-3.11358751760472e-03dB,1.79776264665459e+02°)
1.05681750921366e+02	(-3.11357061558382e-03dB,1.79775748901351e+02°)
1.05925372517729e+02	(-3.11355363556237e-03dB,1.79775231948278e+02°)
1.06169555719872e+02	(-3.11353657714872e-03dB,1.79774713803499e+02°)
1.06414301822431e+02	(-3.11351944000522e-03dB,1.79774194464266e+02°)
1.06659612123026e+02	(-3.11350222375567e-03dB,1.79773673927827e+02°)
1.06905487922266e+02	(-3.11348492804891e-03dB,1.79773152191420e+02°)
1.07151930523760e+02	(-3.11346755249908e-03dB,1.79772629252281e+02°)
1.07398941234124e+02	(-3.11345009675696e-03dB,1.79772105107636e+02°)
1.07646521362983e+02	(-3.11343256043091e-03dB,1.79771579754706e+02°)
1.07894672222983e+02	(-3.11341494317267e-03dB,1.79771053190706e+02°)
1.08143395129794e+02	(-3.11339724458480e-03dB,1.79770525412844e+02°)
1.08392691402120e+02	(-3.11337946431712e-03dB,1.79769996418321e+02°)
1.08642562361706e+02	(-3.11336160196833e-03dB,1.79769466204334e+02°)
1.08893009333343e+02	(-3.11334365718440e-03dB,1.79768934768071e+02°)
1.09144033644875e+02	(-3.11332562956016e-03dB,1.79768402106713e+02°)
1.09395636627209e+02	(-3.11330751872518e-03dB,1.79767868217438e+02°)
1.09647819614318e+02	(-3.11328932431095e-03dB,1.79767333097413e+02°)
1.09900583943252e+02	(-3.11327104588627e-03dB,1.79766796743803e+02°)
1.10153930954141e+02	(-3.11325268309517e-03dB,1.79766259153763e+02°)
1.10407861990207e+02	(-3.11323423557397e-03dB,1.79765720324443e+02°)
1.10662378397766e+02	(-3.11321570287795e-03dB,1.79765180252986e+02°)
1.10917481526240e+02	(-3.11319708464923e-03dB,1.79764638936529e+02°)
1.11173172728159e+02	(-3.11317838048072e-03dB,1.79764096372201e+02°)
1.11429453359173e+02	(-3.11315958998074e-03dB,1.79763552557126e+02°)
1.11686324778056e+02	(-3.11314071274126e-03dB,1.79763007488420e+02°)
1.11943788346715e+02	(-3.11312174838122e-03dB,1.79762461163194e+02°)
1.12201845430196e+02	(-3.11310269647713e-03dB,1.79761913578551e+02°)
1.12460497396692e+02	(-3.11308355662770e-03dB,1.79761364731588e+02°)
1.12719745617551e+02	(-3.11306432844125e-03dB,1.79760814619394e+02°)
1.12979591467279e+02	(-3.11304501148948e-03dB,1.79760263239053e+02°)
1.13240036323555e+02	(-3.11302560539135e-03dB,1.79759710587641e+02°)
1.13501081567231e+02	(-3.11300610970696e-03dB,1.79759156662229e+02°)
1.13762728582343e+02	(-3.11298652404852e-03dB,1.79758601459879e+02°)
1.14024978756116e+02	(-3.11296684796455e-03dB,1.79758044977648e+02°)
1.14287833478977e+02	(-3.11294708108752e-03dB,1.79757487212585e+02°)
1.14551294144553e+02	(-3.11292722296017e-03dB,1.79756928161733e+02°)
1.14815362149688e+02	(-3.11290727315516e-03dB,1.79756367822127e+02°)
1.15080038894443e+02	(-3.11288723128662e-03dB,1.79755806190798e+02°)
1.15345325782109e+02	(-3.11286709690404e-03dB,1.79755243264766e+02°)
1.15611224219209e+02	(-3.11284686957525e-03dB,1.79754679041048e+02°)
1.15877735615512e+02	(-3.11282654889605e-03dB,1.79754113516652e+02°)
1.16144861384034e+02	(-3.11280613441113e-03dB,1.79753546688579e+02°)
1.16412602941049e+02	(-3.11278562570952e-03dB,1.79752978553825e+02°)
1.16680961706096e+02	(-3.11276502232818e-03dB,1.79752409109376e+02°)
1.16949939101987e+02	(-3.11274432385328e-03dB,1.79751838352213e+02°)
1.17219536554813e+02	(-3.11272352984300e-03dB,1.79751266279312e+02°)
1.17489755493952e+02	(-3.11270263984393e-03dB,1.79750692887637e+02°)
1.17760597352080e+02	(-3.11268165342776e-03dB,1.79750118174150e+02°)
1.18032063565172e+02	(-3.11266057013820e-03dB,1.79749542135803e+02°)
1.18304155572516e+02	(-3.11263938954116e-03dB,1.79748964769541e+02°)
1.18576874816716e+02	(-3.11261811116973e-03dB,1.79748386072304e+02°)
1.18850222743701e+02	(-3.11259673458401e-03dB,1.79747806041024e+02°)
1.19124200802737e+02	(-3.11257525932965e-03dB,1.79747224672624e+02°)
1.19398810446427e+02	(-3.11255368494844e-03dB,1.79746641964023e+02°)
1.19674053130724e+02	(-3.11253201098890e-03dB,1.79746057912131e+02°)
1.19949930314937e+02	(-3.11251023699571e-03dB,1.79745472513851e+02°)
1.20226443461741e+02	(-3.11248836248460e-03dB,1.79744885766080e+02°)
1.20503594037179e+02	(-3.11246638699639e-03dB,1.79744297665707e+02°)
1.20781383510677e+02	(-3.11244431008251e-03dB,1.79743708209612e+02°)
1.21059813355048e+02	(-3.11242213128667e-03dB,1.79743117394672e+02°)
1.21338885046497e+02	(-3.11239985009855e-03dB,1.79742525217754e+02°)
1.21618600064636e+02	(-3.11237746607345e-03dB,1.79741931675717e+02°)
1.21898959892486e+02	(-3.11235497871842e-03dB,1.79741336765415e+02°)
1.22179966016487e+02	(-3.11233238757427e-03dB,1.79740740483694e+02°)
1.22461619926504e+02	(-3.11230969215866e-03dB,1.79740142827392e+02°)
1.22743923115840e+02	(-3.11228689196901e-03dB,1.79739543793340e+02°)
1.23026877081238e+02	(-3.11226398654710e-03dB,1.79738943378362e+02°)
1.23310483322890e+02	(-3.11224097540479e-03dB,1.79738341579275e+02°)
1.23594743344450e+02	(-3.11221785804433e-03dB,1.79737738392888e+02°)
1.23879658653036e+02	(-3.11219463397854e-03dB,1.79737133816003e+02°)
1.24165230759240e+02	(-3.11217130272124e-03dB,1.79736527845414e+02°)
1.24451461177138e+02	(-3.11214786375730e-03dB,1.79735920477908e+02°)
1.24738351424294e+02	(-3.11212431661595e-03dB,1.79735311710266e+02°)
1.25025903021771e+02	(-3.11210066078398e-03dB,1.79734701539259e+02°)
1.25314117494141e+02	(-3.11207689576653e-03dB,1.79734089961653e+02°)
1.25602996369487e+02	(-3.11205302105038e-03dB,1.79733476974204e+02°)
1.25892541179416e+02	(-3.11202903613102e-03dB,1.79732862573663e+02°)
1.26182753459066e+02	(-3.11200494050681e-03dB,1.79732246756771e+02°)
1.26473634747114e+02	(-3.11198073366069e-03dB,1.79731629520265e+02°)
1.26765186585784e+02	(-3.11195641507463e-03dB,1.79731010860871e+02°)
1.27057410520853e+02	(-3.11193198424894e-03dB,1.79730390775309e+02°)
1.27350308101665e+02	(-3.11190744065303e-03dB,1.79729769260291e+02°)
1.27643880881134e+02	(-3.11188278377372e-03dB,1.79729146312523e+02°)
1.27938130415752e+02	(-3.11185801306595e-03dB,1.79728521928700e+02°)
1.28233058265601e+02	(-3.11183312804257e-03dB,1.79727896105513e+02°)
1.28528665994361e+02	(-3.11180812815469e-03dB,1.79727268839644e+02°)
1.28824955169313e+02	(-3.11178301285918e-03dB,1.79726640127766e+02°)
1.29121927361353e+02	(-3.11175778164671e-03dB,1.79726009966547e+02°)
1.29419584144998e+02	(-3.11173243396742e-03dB,1.79725378352644e+02°)
1.29717927098395e+02	(-3.11170696928493e-03dB,1.79724745282710e+02°)
1.30016957803328e+02	(-3.11168138706966e-03dB,1.79724110753387e+02°)
1.30316677845229e+02	(-3.11165568677753e-03dB,1.79723474761312e+02°)
1.30617088813183e+02	(-3.11162986784709e-03dB,1.79722837303112e+02°)
1.30918192299940e+02	(-3.11160392975068e-03dB,1.79722198375407e+02°)
1.31219989901920e+02	(-3.11157787192589e-03dB,1.79721557974810e+02°)
1.31522483219223e+02	(-3.11155169381996e-03dB,1.79720916097925e+02°)
1.31825673855640e+02	(-3.11152539489267e-03dB,1.79720272741349e+02°)
1.32129563418657e+02	(-3.11149897456330e-03dB,1.79719627901671e+02°)
1.32434153519466e+02	(-3.11147243230900e-03dB,1.79718981575472e+02°)
1.32739445772973e+02	(-3.11144576751333e-03dB,1.79718333759325e+02°)
1.33045441797808e+02	(-3.11141897964188e-03dB,1.79717684449796e+02°)
1.33352143216332e+02	(-3.11139206812741e-03dB,1.79717033643440e+02°)
1.33659551654643e+02	(-3.11136503239980e-03dB,1.79716381336809e+02°)
1.33967668742593e+02	(-3.11133787187543e-03dB,1.79715727526443e+02°)
1.34276496113786e+02	(-3.11131058598996e-03dB,1.79715072208876e+02°)
1.34586035405594e+02	(-3.11128317414820e-03dB,1.79714415380633e+02°)
1.34896288259165e+02	(-3.11125563578581e-03dB,1.79713757038232e+02°)
1.35207256319427e+02	(-3.11122797031338e-03dB,1.79713097178182e+02°)
1.35518941235103e+02	(-3.11120017715017e-03dB,1.79712435796985e+02°)
1.35831344658715e+02	(-3.11117225569327e-03dB,1.79711772891133e+02°)
1.36144468246594e+02	(-3.11114420535422e-03dB,1.79711108457112e+02°)
1.36458313658892e+02	(-3.11111602555230e-03dB,1.79710442491400e+02°)
1.36772882559584e+02	(-3.11108771565468e-03dB,1.79709774990464e+02°)
1.37088176616484e+02	(-3.11105927510764e-03dB,1.79709105950767e+02°)
1.37404197501251e+02	(-3.11103070328124e-03dB,1.79708435368760e+02°)
1.37720946889394e+02	(-3.11100199956486e-03dB,1.79707763240888e+02°)
1.38038426460288e+02	(-3.11097316336329e-03dB,1.79707089563588e+02°)
1.38356637897177e+02	(-3.11094419406590e-03dB,1.79706414333288e+02°)
1.38675582887188e+02	(-3.11091509105143e-03dB,1.79705737546407e+02°)
1.38995263121334e+02	(-3.11088585369478e-03dB,1.79705059199357e+02°)
1.39315680294529e+02	(-3.11085648139303e-03dB,1.79704379288541e+02°)
1.39636836105593e+02	(-3.11082697350660e-03dB,1.79703697810355e+02°)
1.39958732257261e+02	(-3.11079732942968e-03dB,1.79703014761185e+02°)
1.40281370456195e+02	(-3.11076754851016e-03dB,1.79702330137410e+02°)
1.40604752412990e+02	(-3.11073763013835e-03dB,1.79701643935400e+02°)
1.40928879842186e+02	(-3.11070757366987e-03dB,1.79700956151515e+02°)
1.41253754462274e+02	(-3.11067737845934e-03dB,1.79700266782111e+02°)
1.41579377995707e+02	(-3.11064704388745e-03dB,1.79699575823531e+02°)
1.41905752168908e+02	(-3.11061656928665e-03dB,1.79698883272112e+02°)
1.42232878712281e+02	(-3.11058595401253e-03dB,1.79698189124182e+02°)
1.42560759360218e+02	(-3.11055519744288e-03dB,1.79697493376061e+02°)
1.42889395851109e+02	(-3.11052429890051e-03dB,1.79696796024060e+02°)
1.43218789927353e+02	(-3.11049325775258e-03dB,1.79696097064481e+02°)
1.43548943335364e+02	(-3.11046207329008e-03dB,1.79695396493618e+02°)
1.43879857825583e+02	(-3.11043074491489e-03dB,1.79694694307757e+02°)
1.44211535152486e+02	(-3.11039927193247e-03dB,1.79693990503175e+02°)
1.44543977074592e+02	(-3.11036765366464e-03dB,1.79693285076139e+02°)
1.44877185354475e+02	(-3.11033588946797e-03dB,1.79692578022911e+02°)
1.45211161758773e+02	(-3.11030397864886e-03dB,1.79691869339741e+02°)
1.45545908058195e+02	(-3.11027192053493e-03dB,1.79691159022871e+02°)
1.45881426027534e+02	(-3.11023971446154e-03dB,1.79690447068535e+02°)
1.46217717445671e+02	(-3.11020735971674e-03dB,1.79689733472959e+02°)
1.46554784095590e+02	(-3.11017485562625e-03dB,1.79689018232359e+02°)
1.46892627764385e+02	(-3.11014220152346e-03dB,1.79688301342942e+02°)
1.47231250243271e+02	(-3.11010939666944e-03dB,1.79687582800908e+02°)
1.47570653327588e+02	(-3.11007644042076e-03dB,1.79686862602447e+02°)
1.47910838816819e+02	(-3.11004333204910e-03dB,1.79686140743740e+02°)
1.48251808514594e+02	(-3.11001007084155e-03dB,1.79685417220959e+02°)
1.48593564228699e+02	(-3.10997665611706e-03dB,1.79684692030270e+02°)
1.48936107771090e+02	(-3.10994308716274e-03dB,1.79683965167825e+02°)
1.49279440957898e+02	(-3.10990936325123e-03dB,1.79683236629773e+02°)
1.49623565609442e+02	(-3.10987548369569e-03dB,1.79682506412249e+02°)
1.49968483550236e+02	(-3.10984144774463e-03dB,1.79681774511382e+02°)
1.50314196609001e+02	(-3.10980725468710e-03dB,1.79681040923292e+02°)
1.50660706618673e+02	(-3.10977290380730e-03dB,1.79680305644089e+02°)
1.51008015416413e+02	(-3.10973839437498e-03dB,1.79679568669875e+02°)
1.51356124843619e+02	(-3.10970372565797e-03dB,1.79678829996741e+02°)
1.51705036745932e+02	(-3.10966889690381e-03dB,1.79678089620771e+02°)
1.52054752973248e+02	(-3.10963390740154e-03dB,1.79677347538040e+02°)
1.52405275379728e+02	(-3.10959875638907e-03dB,1.79676603744614e+02°)
1.52756605823806e+02	(-3.10956344312747e-03dB,1.79675858236548e+02°)
1.53108746168202e+02	(-3.10952796686815e-03dB,1.79675111009889e+02°)
1.53461698279928e+02	(-3.10949232686157e-03dB,1.79674362060677e+02°)
1.53815464030302e+02	(-3.10945652234563e-03dB,1.79673611384939e+02°)
1.54170045294954e+02	(-3.10942055256403e-03dB,1.79672858978695e+02°)
1.54525443953840e+02	(-3.10938441676434e-03dB,1.79672104837957e+02°)
1.54881661891247e+02	(-3.10934811414972e-03dB,1.79671348958726e+02°)
1.55238700995807e+02	(-3.10931164398318e-03dB,1.79670591336993e+02°)
1.55596563160506e+02	(-3.10927500547658e-03dB,1.79669831968742e+02°)
1.55955250282694e+02	(-3.10923819785336e-03dB,1.79669070849947e+02°)
1.56314764264094e+02	(-3.10920122032538e-03dB,1.79668307976572e+02°)
1.56675107010813e+02	(-3.10916407214503e-03dB,1.79667543344572e+02°)
1.57036280433354e+02	(-3.10912675247303e-03dB,1.79666776949893e+02°)
1.57398286446620e+02	(-3.10908926054249e-03dB,1.79666008788471e+02°)
1.57761126969933e+02	(-3.10905159555562e-03dB,1.79665238856234e+02°)
1.58124803927037e+02	(-3.10901375674646e-03dB,1.79664467149100e+02°)
1.58489319246110e+02	(-3.10897574325164e-03dB,1.79663693662975e+02°)
1.58854674859776e+02	(-3.10893755429268e-03dB,1.79662918393760e+02°)
1.59220872705115e+02	(-3.10889918908046e-03dB,1.79662141337344e+02°)
1.59587914723672e+02	(-3.10886064676512e-03dB,1.79661362489607e+02°)
1.59955802861465e+02	(-3.10882192656142e-03dB,1.79660581846419e+02°)
1.60324539069002e+02	(-3.10878302762334e-03dB,1.79659799403641e+02°)
1.60694125301286e+02	(-3.10874394914923e-03dB,1.79659015157124e+02°)
1.61064563517825e+02	(-3.10870469028634e-03dB,1.79658229102711e+02°)
1.61435855682647e+02	(-3.10866525022530e-03dB,1.79657441236233e+02°)
1.61808003764305e+02	(-3.10862562809598e-03dB,1.79656651553513e+02°)
1.62181009735891e+02	(-3.10858582309963e-03dB,1.79655860050364e+02°)
1.62554875575047e+02	(-3.10854583436420e-03dB,1.79655066722590e+02°)
1.62929603263970e+02	(-3.10850566106200e-03dB,1.79654271565983e+02°)
1.63305194789432e+02	(-3.10846530230745e-03dB,1.79653474576329e+02°)
1.63681652142779e+02	(-3.10842475727866e-03dB,1.79652675749401e+02°)
1.64058977319952e+02	(-3.10838402509972e-03dB,1.79651875080963e+02°)
1.64437172321491e+02	(-3.10834310490724e-03dB,1.79651072566771e+02°)
1.64816239152549e+02	(-3.10830199583976e-03dB,1.79650268202569e+02°)
1.65196179822900e+02	(-3.10826069702428e-03dB,1.79649461984093e+02°)
1.65576996346951e+02	(-3.10821920758678e-03dB,1.79648653907067e+02°)
1.65958690743754e+02	(-3.10817752663497e-03dB,1.79647843967208e+02°)
1.66341265037015e+02	(-3.10813565329194e-03dB,1.79647032160220e+02°)
1.66724721255104e+02	(-3.10809358668661e-03dB,1.79646218481800e+02°)
1.67109061431069e+02	(-3.10805132589867e-03dB,1.79645402927633e+02°)
1.67494287602642e+02	(-3.10800887005222e-03dB,1.79644585493395e+02°)
1.67880401812254e+02	(-3.10796621822792e-03dB,1.79643766174752e+02°)
1.68267406107045e+02	(-3.10792336954405e-03dB,1.79642944967359e+02°)
1.68655302538872e+02	(-3.10788032308033e-03dB,1.79642121866863e+02°)
1.69044093164324e+02	(-3.10783707790875e-03dB,1.79641296868899e+02°)
1.69433780044731e+02	(-3.10779363313891e-03dB,1.79640469969092e+02°)
1.69824365246172e+02	(-3.10774998782930e-03dB,1.79639641163060e+02°)
1.70215850839493e+02	(-3.10770614107217e-03dB,1.79638810446406e+02°)
1.70608238900310e+02	(-3.10766209191923e-03dB,1.79637977814726e+02°)
1.71001531509027e+02	(-3.10761783945696e-03dB,1.79637143263607e+02°)
1.71395730750840e+02	(-3.10757338272550e-03dB,1.79636306788622e+02°)
1.71790838715757e+02	(-3.10752872078527e-03dB,1.79635468385336e+02°)
1.72186857498599e+02	(-3.10748385272273e-03dB,1.79634628049305e+02°)
1.72583789199018e+02	(-3.10743877754040e-03dB,1.79633785776072e+02°)
1.72981635921508e+02	(-3.10739349429388e-03dB,1.79632941561172e+02°)
1.73380399775412e+02	(-3.10734800204841e-03dB,1.79632095400128e+02°)
1.73780082874935e+02	(-3.10730229981808e-03dB,1.79631247288454e+02°)
1.74180687339159e+02	(-3.10725638661990e-03dB,1.79630397221654e+02°)
1.74582215292048e+02	(-3.10721026150754e-03dB,1.79629545195219e+02°)
1.74984668862463e+02	(-3.10716392351053e-03dB,1.79628691204632e+02°)
1.75388050184174e+02	(-3.10711737159668e-03dB,1.79627835245366e+02°)
1.75792361395867e+02	(-3.10707060481965e-03dB,1.79626977312881e+02°)
1.76197604641161e+02	(-3.10702362218197e-03dB,1.79626117402629e+02°)
1.76603782068614e+02	(-3.10697642268810e-03dB,1.79625255510051e+02°)
1.77010895831740e+02	(-3.10692900532803e-03dB,1.79624391630576e+02°)
1.77418948089014e+02	(-3.10688136909465e-03dB,1.79623525759624e+02°)
1.77827941003890e+02	(-3.10683351299532e-03dB,1.79622657892604e+02°)
1.78237876744807e+02	(-3.10678543598433e-03dB,1.79621788024914e+02°)
1.78648757485203e+02	(-3.10673713707193e-03dB,1.79620916151942e+02°)
1.79060585403527e+02	(-3.10668861522593e-03dB,1.79620042269066e+02°)
1.79473362683250e+02	(-3.10663986941220e-03dB,1.79619166371651e+02°)
1.79887091512876e+02	(-3.10659089859180e-03dB,1.79618288455054e+02°)
1.80301774085954e+02	(-3.10654170174120e-03dB,1.79617408514619e+02°)
1.80717412601090e+02	(-3.10649227781375e-03dB,1.79616526545682e+02°)
1.81134009261958e+02	(-3.10644262573094e-03dB,1.79615642543565e+02°)
1.81551566277311e+02	(-3.10639274449724e-03dB,1.79614756503581e+02°)
1.81970085860996e+02	(-3.10634263300713e-03dB,1.79613868421033e+02°)
1.82389570231961e+02	(-3.10629229021589e-03dB,1.79612978291211e+02°)
1.82810021614272e+02	(-3.10624171506044e-03dB,1.79612086109397e+02°)
1.83231442237119e+02	(-3.10619090645746e-03dB,1.79611191870859e+02°)
1.83653834334832e+02	(-3.10613986333231e-03dB,1.79610295570855e+02°)
1.84077200146893e+02	(-3.10608858460263e-03dB,1.79609397204634e+02°)
1.84501541917945e+02	(-3.10603706918510e-03dB,1.79608496767433e+02°)
1.84926861897805e+02	(-3.10598531597325e-03dB,1.79607594254476e+02°)
1.85353162341478e+02	(-3.10593332388857e-03dB,1.79606689660979e+02°)
1.85780445509167e+02	(-3.10588109182652e-03dB,1.79605782982145e+02°)
1.86208713666284e+02	(-3.10582861866423e-03dB,1.79604874213166e+02°)
1.86637969083464e+02	(-3.10577590330968e-03dB,1.79603963349225e+02°)
1.87068214036577e+02	(-3.10572294462747e-03dB,1.79603050385492e+02°)
1.87499450806739e+02	(-3.10566974147736e-03dB,1.79602135317125e+02°)
1.87931681680324e+02	(-3.10561629278278e-03dB,1.79601218139273e+02°)
1.88364908948977e+02	(-3.10556259737647e-03dB,1.79600298847073e+02°)
1.88799134909627e+02	(-3.10550865411917e-03dB,1.79599377435650e+02°)
1.89234361864495e+02	(-3.10545446188028e-03dB,1.79598453900119e+02°)
1.89670592121112e+02	(-3.10540001948774e-03dB,1.79597528235584e+02°)
1.90107827992327e+02	(-3.10534532581866e-03dB,1.79596600437135e+02°)
1.90546071796322e+02	(-3.10529037968265e-03dB,1.79595670499854e+02°)
1.90985325856621e+02	(-3.10523517993850e-03dB,1.79594738418810e+02°)
1.91425592502106e+02	(-3.10517972540257e-03dB,1.79593804189060e+02°)
1.91866874067026e+02	(-3.10512401488831e-03dB,1.79592867805652e+02°)
1.92309172891013e+02	(-3.10506804723716e-03dB,1.79591929263619e+02°)
1.92752491319091e+02	(-3.10501182124811e-03dB,1.79590988557987e+02°)
1.93196831701689e+02	(-3.10495533573847e-03dB,1.79590045683766e+02°)
1.93642196394658e+02	(-3.10489858950819e-03dB,1.79589100635958e+02°)
1.94088587759275e+02	(-3.10484158134469e-03dB,1.79588153409551e+02°)
