Frequency Log(Hz), Gain (dB), Phase (deg)
2.99999764447161, -54.2613805394672, 145.08112171794
3.00100118870514, -42.8811562702493, 11.4410079958699
3.00199758802927, -41.7698625460922, -135.815050673974
3.00300134704309, -39.4894516340558, -160.259054792857
3.00399798236036, -49.1813731923066, 95.0834485461171
3.00500193198058, -50.3690037321277, -26.7877774786049
3.00599877913069, -38.7043442121421, -164.830797722642
3.00699811949312, -48.2789605552357, -45.781477390978
3.00799993064288, -38.5730999949899, 40.9441893873287
3.00899943617682, -37.1687274495704, 18.665463837742
3.010001389831, -48.6095266523544, -151.993461758983
3.01100103721412, -39.0442946266115, 53.2346262319404
3.01199838891885, -34.6417861273931, 20.7292691674923
3.01299816599614, -49.4693712362252, 61.4837550121792
3.01400034647353, -40.4889541366748, 167.744201275575
3.01500021963676, -40.5850469420121, -59.3494016319136
3.01599779608566, -42.709431888636, -170.005876237934
3.01699775369609, -45.1789993417195, 54.833332537877
3.01800007079407, -46.9817545948356, 23.1517818810556
3.0190000799495, -56.0123979422767, 165.343242540471
3.01999779176651, -43.5120274428823, -145.500755301264
3.0209978413336, -42.6678877029185, 57.5609302506324
3.02200020727268, -43.9991600504554, -179.661441898296
3.02300026504452, -51.6759744493574, -68.9576904538513
3.02399802525484, -47.2649447362075, -136.202360699368
3.02499808059269, -45.4042331813249, -126.732934994679
3.02600040997323, -38.4735166730767, 30.9735881504224
3.02700043135471, -42.432452051675, -176.459245638396
3.02799815534168, -39.9102551846383, -128.455728887795
3.02899813261183, -46.1254339700659, 84.4417553946496
3.03000034237082, -60.848205634886, -145.442927770272
3.03100024468098, -29.6615416907731, 39.4431275626668
3.03199785014306, -24.0167078921432, -157.586181682212
3.03300216629104, -28.0636293372103, 15.9999475335524
3.03399967717904, -34.0267886854916, -111.161303986595
3.03499938001955, -22.8781344575673, 20.3506540733476
3.03600125444889, -19.4410110579823, 22.8007823431015
3.03700082297146, -22.121079713409, 21.9241689218922
3.03799809617741, -34.0191965119229, -116.461942572891
3.03900195814964, -24.125977728309, 22.7389708577838
3.03999907852754, -25.2824820276149, -151.338944874925
3.04099833121742, -37.8663587203246, -152.613542224519
3.04199969627974, -47.201101226878, -109.31765778988
3.04299875777672, -42.7400797709065, 168.729069604722
3.04399991227572, -43.6153109145161, -156.856118870741
3.04499876417693, -45.6805588820968, 147.289860220321
3.0459996898914, -42.6893560567978, -93.2273096863632
3.04699831405913, -44.5847597973465, -136.537326938279
3.04799899303158, -44.8677460611398, 46.1944944218567
3.0490017073597, -38.7383857527986, 61.2825679574825
3.05000211191767, -49.3671295402141, -114.713463294607
3.05100021732224, -42.4498297056043, 30.1165155160715
3.05200034005242, -48.7933090111077, 50.559110864219
3.05299816492293, -39.3886129321332, 138.589857699224
3.05399798864304, -45.2710107503532, 59.8091911483286
3.05499979217439, -36.8261068395831, -73.484939523512
3.05599929012495, -33.3535496569262, -139.763930487026
3.05700074972402, -51.8662565616298, 166.515197913127
3.05799990532327, -57.2149047907476, 45.2175154017754
3.05900100458107, -39.4901164457898, -122.954599455348
3.05999980149489, -38.7815288954835, -138.413694206719
3.06100052424864, -58.0979568996965, -47.1675754736023
3.06199894638786, -40.6028352243993, 160.53084133661
3.06299927671837, -46.4875131376067, -119.852612544184
3.06400149681115, -42.8535865931249, -118.586857201822
3.06500140940756, -44.8232291628651, -36.6315335023397
3.06599902510869, -41.6801743106849, 2.34308039825988
3.06699851421211, -43.2367274090726, -18.2521690321629
3.0679998585525, -42.7596085798452, -127.578464503534
3.06899889942276, -47.1202255307499, -69.167813865709
3.06999977851785, -40.6179486199814, -149.264500892004
3.07099835628034, -42.089034772024, -160.517308481089
3.07199875541929, -56.6362730243741, 153.709595283476
3.07300095810156, -51.8475271528754, -75.63501917292
3.07400085336755, -48.2782927655282, -165.175535995429
3.07499845181778, -50.9858185960362, 84.182701915544
3.07600191285845, -37.3451117597153, -125.381618665128
3.07699899565307, -44.0022057109679, 91.5740015519467
3.07800190595745, -38.183086165575, -164.997287266403
3.07899845922337, -36.6684956099822, -144.766665801984
3.08000080517297, -47.7021619044562, -160.410848253826
3.0810008430473, -34.9567645259956, -37.8943675376248
3.08199858345141, -36.3768070867633, -117.511181643474
3.08299804622755, -37.707035548204, 41.4775051882642
3.08399921425026, -36.3381838425623, 161.313163963647
3.08499807961303, -35.968872248053, 69.2398676810742
3.08599863458835, -45.7001315037421, 106.173670730963
3.0870008622462, -43.9245520740472, -63.5833439358991
3.08800078237289, -37.1151057624601, 156.221863507042
3.08899840556974, -33.3216595015402, -79.4694486077404
3.09000163274658, -34.1840134264859, 48.6153136109053
3.09099861170189, -33.2160253989604, 72.1620501720972
3.09200116134104, -37.1256650866955, -26.4796175777491
3.09300140196785, -37.213843739864, -121.109906604511
3.09399934419382, -38.8189559478241, 36.7833577708693
3.09499889859461, -33.2081581879739, -59.0045610345206
3.09600004880048, -32.8807627666268, 179.664903104812
3.09699889642828, -33.1643287650445, -116.469606102805
3.09799932523077, -34.014636236885, -37.1300619945
3.0990013190282, -33.1371662510919, 84.082478820901
3.10000100636998, -32.0883096033402, 172.452782569577
3.10099839785005, -32.9406691491196, 13.0419844092866
3.10200117934219, -36.6570868552116, -87.1716281977137
3.10300165075511, -32.9090685119206, 81.6140872977197
3.10399982270768, -35.7095085854608, 117.585142026119
3.10499951700131, -31.9758443644703, -165.274137091742
3.10600071788073, -35.0715619172047, 107.890614397811
3.10699961594925, -32.7558760501189, -123.228394162925
3.10800000679045, -39.7264626002913, -1.29756089655284
3.10900187483437, -41.5060212548664, -129.812479196711
3.11000143700088, -41.5290564665753, -27.5690566036434
3.11099870387992, -34.2469429721274, 66.273091144773
3.11200118662737, -33.283519478068, -152.029165912098
3.11300136067021, -30.6251249874983, -24.4177084883593
3.11399923661787, -32.303558128741, -90.2638709110579
3.11499854951553, -29.919788372978, 50.4356666611385
3.11599928420537, -33.5066266278803, -72.4990001951091
3.11700142559743, -31.8407611986694, 119.837643488135
3.1180012598551, -32.490260327922, 115.671295176373
3.11899879757696, -31.0481917524815, 33.0161135816424
3.12000141302038, -35.3955219688911, -129.135249629274
3.12100171914866, -44.1276421436008, 74.319052801328
3.12199972657543, -36.1016574062565, -136.514346712129
3.12299910236516, -39.9258345716965, -134.718493930619
3.12399983183025, -50.6666222857838, -6.91605323344402
3.12499826064999, -38.4536721153497, -90.1430563141863
3.12600166207077, -53.8948313533771, 16.5764507998392
3.12699912758843, -44.901488246779, 116.918543564785
3.12800153675175, -40.7026838071259, -106.405027511854
3.129001637549, -48.2132658787253, 103.963077967727
3.12999944058725, -41.2704900793091, 88.3119399880714
3.13099854618975, -43.6702427177867, -92.0067875054627
3.13199894012825, -43.5578393697458, 143.68991337876
3.1330006082406, -44.2782152732428, 173.451012622808
3.13399997139471, -63.825877680189, -162.39837342013
3.13500059703499, -54.4413087030521, 175.672983486788
3.13599892250672, -51.7155216528454, 160.803399700786
3.13699849889615, -40.6224996659349, 166.002481583324
3.13799931231875, -39.2535090177594, 35.9056349912528
3.13900134895547, -47.2346338949063, 67.1737310909564
3.14000107893955, -49.5594271137137, 119.832818067132
3.14099851286627, -46.7480482801514, 20.4106277958964
3.14200066126583, -31.2382558600808, -5.80749453260627
3.14300050249876, -27.2405711752378, 19.2134937882487
3.14400153106564, -28.5964718705331, -146.016026226493
3.14500025761328, -29.6132029408775, -5.46053217061404
3.14600016061067, -33.2075000510432, 7.19697809301429
3.14700122667788, -22.7826930918055, -157.732986923775
3.14799999055359, -23.359492154718, 25.0163160486103
3.14899990683696, -30.0645285928431, -165.008394585623
3.15000096231327, -34.5438515033372, -151.137371979098
3.15099971564673, -31.8948921987074, -161.301468937127
3.15199959772994, -32.0655838375135, -125.251145799809
3.15300059551184, -37.7888112416472, -175.458068662029
3.15399929141593, -35.7394993470469, 132.745018922037
3.1549990927915, -35.6479979245792, 56.7961029243988
3.15599998674957, -35.963096781252, 107.373257984153
3.15699857930677, -38.0962275409028, -13.4594313532917
3.15800162781593, -39.4919255707436, -139.073886769823
3.15899899939745, -33.6078342403759, -66.1098807033995
3.16000080153694, -38.8858023428819, 90.5806655797621
3.16100029810203, -33.1708324207722, 47.8962169047623
3.16200084214287, -41.2857997481987, 168.213906598769
3.16299908638987, -35.5382190719102, 50.5887874049136
3.16399836851511, -32.9504826994408, -155.791932396803
3.16499867610675, -34.2321195470218, -165.725302088072
3.1659999968149, -38.230351718051, 3.94561584326126
3.16699901416153, -41.2136814108342, 126.33956412172
3.1679990353348, -33.1906847263655, 115.213215412551
3.16900004814035, -36.6924794042583, -37.7009814277025
3.16999875899907, -35.6309282159824, 139.905099746668
3.17099845239999, -31.3528522321825, 54.7540328141961
3.17199911630265, -31.7204644065651, 12.6248453994992
3.17300073872762, -33.4249044964739, 130.61792319573
3.17400005640436, -36.9232284758772, 168.405791001081
3.17500032381152, -39.6033948529885, 16.9738526933869
3.17600152912163, -35.7648965491676, 147.406738140434
3.17700043160047, -50.9704098230518, 56.3472007661007
3.17800026338307, -54.3798137113335, -167.385063594879
3.17900101279226, -41.1270467019914, -9.78481192178817
3.1799994614645, -45.232736655162, -133.750047360102
3.18099881935386, -45.1139759974799, -37.5802777870611
3.18199907493188, -38.4618169335558, 6.03819127065371
3.1830002167297, -50.7599326855388, -106.721946983727
3.18399905598808, -35.2436968090187, 36.413445334272
3.18499877334143, -50.5392844286978, -107.095445995303
3.18599935746755, -44.1634014575573, -142.162900510103
3.1870007971033, -42.5617707562448, 29.9011570753518
3.18799993283098, -47.8616447174718, -0.64712534187644
3.18899991622269, -45.472249765552, -89.607120617632
3.1900007361599, -49.8567375877901, -2.86761707466994
3.19099925503623, -47.1431920230082, -10.1181722576411
3.1919986027911, -39.2300717480873, 64.8188881234907
3.19299876844898, -42.0000269924693, 26.4502746070572
3.19399974109229, -52.1297119578626, -178.214660621611
3.19500150986138, -43.2743990003773, -179.78078780173
3.1960009732095, -52.8723103731252, -50.4088152072919
3.19700122538, -40.3062576110491, -148.542048693006
3.19799917909668, -48.7810309403598, 9.01708047283857
3.19900098390036, -37.0812433766335, -174.497730516167
3.20000048311739, -36.0309474198501, -138.548504573703
3.20100074272445, -43.8806733827181, -24.5551111243335
3.20199870384354, -42.8794402967181, -91.1517173386158
3.20300045973997, -51.2850134514995, -145.629752825543
3.20399991027459, -44.8431187341445, -7.39366015034802
3.205000093415, -42.8751774372953, 162.943464083209
3.20600099883054, -51.1836038057544, -114.858249458774
3.20699960279259, -34.524734852865, -136.70253844326
3.20799892240952, -38.8785606619162, 83.7935311168358
3.20899894748532, -30.8767505311955, -148.361640984061
3.2099996678795, -30.3265311862537, 179.120426372102
3.21100107350707, -53.1750628763248, -149.021153789044
3.21200017538287, -39.8774872810338, -98.5490877486824
3.21299995620822, -30.3059332685399, -69.0640418043045
3.21400040603014, -27.9589606168536, 127.54116734958
3.21499855649084, -26.0367136776973, -121.040628522989
3.21600032148247, -26.8017522148578, 173.524837184695
3.21699978107049, -23.5212980907738, 70.5791387041393
3.21799988394631, -22.3302356696295, 112.155161323974
3.21900062039588, -21.1648634941047, 86.3033166536848
3.21999905616802, -22.8905000127487, 93.0138417605562
3.2210010375788, -25.3597612215706, 159.386464640429
3.2220007125909, -28.8127857918944, 91.4486382254052
3.22300099626282, -33.9356601042619, 98.7523732583455
3.22399898133631, -31.289662404516, -178.448421784468
3.2250004606179, -41.8731294029029, 114.609257838335
3.2259996358092, -41.0634435191029, -83.3575994786488
3.22699939533507, -48.5602654028311, -109.392946072046
3.22799972989414, -37.7457253749211, -147.1721338934
3.22900063023767, -39.067811737493, 163.934463245621
3.229999229151, -32.3737156093776, -139.46346439985
3.23100124011369, -33.653437973567, 10.1291081916195
3.23200094454179, -34.645340084406, -96.6921338606222
3.23300119137958, -38.4303874493497, 175.022647275688
3.23399913978802, -40.7330669247578, -27.5214355460463
3.2350004509513, -41.2980991773244, 179.25484399104
3.23599945879691, -45.0316105569555, -110.775183652507
3.23699898623904, -37.1164068695009, 157.549087544785
3.23799902442635, -41.049978214729, -69.1131699861883
3.23899956455855, -53.4077985966827, -37.3704080455368
3.24000059788624, -72.3361122956275, -110.530079879448
3.24099932917284, -45.0828263382545, -147.3690091681
3.24200132926794, -56.3818905241245, 155.39079184936
3.24300102287844, -41.3652522743398, 132.218793853342
3.24400118795988, -58.2842030142754, 17.2392634341176
3.24499905498727, -37.7573475766852, 125.869841337136
3.2460001438205, -50.4188979397962, -53.2589151526735
3.24699893035764, -42.820866284849, 76.0062363953105
3.24800090916488, -42.0438328526358, -165.790326085814
3.2490005815854, -46.6659549329406, -28.3976576744644
3.25000068760748, -43.9239196236915, -172.005271345339
3.25100121896064, -37.1137903010944, 69.7266897358695
3.25199945057821, -54.0222423064928, 155.14922386679
3.25300081423475, -47.8439831581084, -39.1336592014864
3.2539998743324, -46.2422374996386, -65.9126320289053
3.25499933960514, -40.3367570636799, -100.222156558223
3.25599920199009, -46.2217397757749, -98.2910042713766
3.2569994534725, -44.2707732243772, -21.7203549915947
3.25800008608557, -41.2980071567081, -95.134793711746
3.25900109191031, -46.5323563467054, 51.4672563646777
3.2599997958203, -36.4669205091087, -146.077284353117
3.26099886952085, -42.3120457738126, -49.0806120157976
3.26200096020906, -36.6350547819403, 27.1659090724837
3.26300074399605, -30.9586421857929, -154.525503871134
3.26400087429001, -28.5595020733917, -50.3436535304617
3.26499870668957, -24.3299903901766, -6.40610193416024
3.26599951309929, -25.647886142187, -36.5380407903506
3.2670006431298, -28.3558059217338, 17.7709516567889
3.26799947067493, -54.1645825421308, 23.3777042943575
3.26900123143088, -40.5881922750028, -119.722360606275
3.27000068680268, -40.1908136891065, -80.6092047908572
3.27100044793486, -36.4353055645378, -43.8932220776961
3.27200050744325, -31.7789012726754, -5.47042565941072
3.27300085798916, -28.1751498477485, 13.0850347236892
3.27399890962964, -26.6875820858214, -135.013682454746
3.27499982636105, -24.8870507008554, -153.002591301857
3.27600101237317, -22.5457550838151, -16.0238300305988
3.27699989564272, -22.5218605070728, 23.8896827050197
3.27799904572412, -26.348932136415, 177.874466023587
3.27900100860105, -30.9181599291673, -123.661134148702
3.28000066516452, -46.5479241484485, -60.2045280114534
3.28100056736865, -42.0889641304359, -77.3973569362224
3.28200070824056, -36.2035932414732, -168.88631776784
3.28300108085118, -47.4047700685364, -169.68757213968
3.28399915445508, -42.2802336846783, -136.789505855084
3.28499997573994, -52.3325919582918, -90.1202252744424
3.28600100822556, -42.5240549365988, 174.723430230135
3.28699973867395, -35.9608505851668, -97.420212268952
3.28800117911101, -49.9048902095485, -41.596372953239
3.28900031563631, -39.9816113225417, 115.978342213844
3.28999964806923, -32.8699001981569, 102.062480254473
3.29099916978897, -44.9336717170312, 89.9967515773014
3.29199887421708, -39.7821649620403, 177.682600657131
3.2930012269153, -39.4214960215645, -60.0055235939299
3.29399880509506, -40.0485945176136, 156.006830431194
3.29499901859806, -55.0001844100503, 106.820159018272
3.29599938891535, -39.4924602334054, -47.8339304966767
3.29699990967756, -44.2088786852549, -149.445402737989
3.2980005745566, -36.1955910039512, 81.0946339855264
3.29899893908692, -45.3536115313389, 120.768057810609
3.29999987899284, -51.6805985699163, -72.5283548793946
3.30100094426549, -41.0574263881059, -72.9876804985003
3.30199970735029, -39.6635605572947, 124.379611067448
3.30300101047984, -37.4114215597961, 38.3358168440732
3.30400001032864, -41.2842285011661, -123.981094249072
3.30499912220679, -40.7962650181055, -167.604283458763
3.30600073927251, -37.409327980776, -76.5462046505072
3.30700005161464, -36.6857372212259, 125.40757585418
3.3079994579972, -39.5820386223672, -68.1028023752092
3.30899895249898, -35.2592216817041, -42.152487093196
3.3100009064394, -44.7847217821528, 69.309611860592
3.31100055410746, -44.0632670300856, 43.8217171313965
3.31200027237834, -46.3690638896591, 109.678906080138
3.31300005548701, -43.4502378557341, 153.099909977756
3.31399989770702, -35.6072055164239, -81.259911623509
3.3149997933504, -39.0569735175712, -153.932455000901
3.31599973676745, -43.9482159163641, -44.9723444974174
3.3169997223466, -42.0095511265089, -40.5670253643736
3.31799974451422, -50.7505797659548, -79.333104568013
3.31899979773445, -37.066638980422, 53.8119924468909
3.31999987650906, -37.4061051823629, -16.4741794302909
3.32099997537725, -36.8940201945008, 6.54999407716353
3.3220000889155, -40.5675802089894, -24.1539443799006
3.32300021173739, -41.9001709018141, 142.989651125311
3.32400033849343, -30.2535314810666, -115.537810912176
3.32500046387092, -30.4778895179126, -148.44283757532
3.32600058259373, -39.7043559718168, -152.0255537462
3.32700068942219, -43.3683746640852, 94.8990436414095
3.32800077915286, -39.770052023928, 63.7942104063169
3.32900084661842, -29.1214982148963, -146.870484192686
3.33000088668746, -28.4935659580683, 142.65140833874
3.33100089426433, -22.1879085294941, 16.6151923209858
3.33200086428896, -35.9886575329682, 13.712481796628
3.3330007917367, -37.8482092333464, -54.3927948376907
3.33400067161817, -35.4149213293951, 91.0073316887614
3.33500049897903, -36.2683149187574, -39.0661324470579
3.3360002688999, -43.9750037041, 125.993886664721
3.33699997649611, -40.2786379496218, -142.668099182317
3.33799961691759, -52.130042152048, 174.696620100023
3.33899918534867, -46.4193418706336, -65.045950282143
3.34000089554095, -45.0531823938676, -159.783964245033
3.34100030058155, -53.4214523379509, -146.801209925299
3.34199961940169, -46.80763305888, 138.531060888462
3.34300105058159, -54.6337549594955, -1.98319404301966
3.34400017789228, -52.2289655869287, 51.1186904633718
3.34499920505607, -48.5447647583176, 101.378237246596
3.34600031558993, -45.2995288722219, -131.739518984335
3.346999123728, -46.5710284662299, 5.99398007703514
3.3479999961365, -42.8020346357602, 172.984246185656
3.34900074027468, -41.6203359155088, 154.743289934807
3.34999918370013, -48.5224526777798, 146.819609847655
3.35099966308349, -42.9226474810189, 144.724945666234
3.35200000104604, -49.392504603679, 26.0706771295983
3.35300019327269, -40.2030977930859, 108.860374389688
3.35400023548018, -48.1603471595131, 175.219262285019
3.355000123417, -41.7817833513002, -155.370726275502
3.35599985286317, -39.7980737023734, -2.93953559092763
3.3569994196301, -51.2928980387838, 11.5399467462908
3.35800094802193, -43.282634329709, 49.6056748149763
3.35900017209777, -46.7259063115259, -49.6966381486951
3.35999922112733, -35.8239787422915, -138.748507370219
3.3610002048588, -32.2507433661284, -129.736441697737
3.3620009957244, -33.2165719688958, -169.032027515447
3.36299948566265, -37.6573647861654, 56.1758056595126
3.36399988376562, -39.7904310890752, -61.7508166189061
3.36500007717872, -43.2768040127599, -113.437658395136
3.36600006202461, -43.6696963678688, 127.764490349873
3.36699983445565, -41.9438075788352, -115.505992026424
